
SetupTitle, ID-VG-FinFET
PrimitiveTest, I/V Sweep
TestParameter, Context.MainFrame, B1500A
TestParameter, Channel.UnitType, SMU, SMU, SMU
TestParameter, Channel.Unit, SMU1:HP, SMU2:HR, SMU3:MP
TestParameter, Channel.IName, IG, ID, IS
TestParameter, Channel.VName, VG, VD, VS
TestParameter, Channel.Mode, V, V, COMMON
TestParameter, Channel.Func, VAR1, VAR2, CONST
TestParameter, Channel.Index, 
TestParameter, Channel.Time, 
TestParameter, Measurement.Port.Unit, SMU1:HP, SMU2:HR, SMU3:MP
TestParameter, Measurement.Port.SeriesResistor, NONE, NONE, NONE
TestParameter, Measurement.Port.Filter, ON, ON, ON
TestParameter, Measurement.Port.OutputVoltageComparison, 0, 0, 0
TestParameter, Measurement.Primary.Locus, Double
TestParameter, Measurement.Primary.Scale, LINEAR
TestParameter, Measurement.Primary.Start, 0.5
TestParameter, Measurement.Primary.Stop, -2
TestParameter, Measurement.Primary.Step, -0.025
TestParameter, Measurement.Primary.Compliance, 1E-05
TestParameter, Measurement.Primary.PowerCompliance, 0
TestParameter, Measurement.Aborting.Condition, CONTINUE AT ANY
TestParameter, Measurement.PostOutput.Value, START
TestParameter, Measurement.PostOutput.Retention, OFF
TestParameter, Measurement.Secondary.Start, -0.3
TestParameter, Measurement.Secondary.Count, 1
TestParameter, Measurement.Secondary.Step, -0.45
TestParameter, Measurement.Secondary.Compliance, 0.02
TestParameter, Measurement.Secondary.PowerCompliance, 0
TestParameter, Measurement.Bias.Source, 0.5, -0.3, 0
TestParameter, Measurement.Bias.Compliance, 1E-05, 0.02, 0.1
TestParameter, Measurement.Monitor.Unit, SMU1:HP, SMU2:HR, SMU3:MP
TestParameter, Measurement.Monitor.Adc, HR ADC, HR ADC, HR ADC
TestParameter, Measurement.Monitor.Measurement, Compliance Side, Compliance Side, Compliance Side
TestParameter, Measurement.Monitor.RangingMode, LIMITED, LIMITED, LIMITED
TestParameter, Measurement.Monitor.RangeBoundary, 1nA, 1nA, 1nA
TestParameter, Measurement.Monitor.RangeRating, BY FULL RANGE, BY FULL RANGE, BY FULL RANGE
TestParameter, Measurement.Monitor.RangeRatingCoeff, 50, 50, 50
TestParameter, Measurement.Timing.Hold, 0
TestParameter, Measurement.Timing.Delay, 0
TestParameter, Measurement.Adc.HighSpeed.Mode, AUTO
TestParameter, Measurement.Adc.HighSpeed.Coeff, 1
TestParameter, Measurement.Adc.HighResolution.AutoZero, OFF
TestParameter, Measurement.Adc.HighResolution.Mode, AUTO
TestParameter, Measurement.Adc.HighResolution.Coeff, 6
TestParameter, Measurement.WaitTime.Source.Coeff, 1
TestParameter, Measurement.WaitTime.Source.Offset, 0
TestParameter, Measurement.WaitTime.Monitor.Coeff, 1
TestParameter, Measurement.WaitTime.Monitor.Offset, 0
TestParameter, Output.Graph.Enabled, true
TestParameter, Output.Graph.XAxis.Data, VG
TestParameter, Output.Graph.XAxis.Scale, Linear
TestParameter, Output.Graph.XAxis.Left, 0
TestParameter, Output.Graph.XAxis.Right, 1
TestParameter, Output.Graph.YAxis.Data, IS, IG
TestParameter, Output.Graph.YAxis.Scale, Log, Linear
TestParameter, Output.Graph.YAxis.Bottom, 1E-12, 1E-15
TestParameter, Output.Graph.YAxis.Top, 0.1, 1E-11
TestParameter, Output.Graph.YAxis.Group, Group 1, Group 2
TestParameter, Output.List.Data, VD, ID, IS, IG
TestParameter, AutoAnalysis.Interpolation, false
TestParameter, AutoAnalysis.Line1.Enabled, false
TestParameter, AutoAnalysis.Line1.Type, 1
TestParameter, AutoAnalysis.Line1.Fix, True
TestParameter, AutoAnalysis.Line1.YAxis, 0
TestParameter, AutoAnalysis.Line1.Point1.Type, 0
TestParameter, AutoAnalysis.Line1.Point1.XY.X, 
TestParameter, AutoAnalysis.Line1.Point1.XY.Y, 
TestParameter, AutoAnalysis.Line1.Point1.Data.Var, 
TestParameter, AutoAnalysis.Line1.Point1.Data.Condition, 
TestParameter, AutoAnalysis.Line1.Point1.Data.Start, false
TestParameter, AutoAnalysis.Line1.Point1.Data.StartVar, 
TestParameter, AutoAnalysis.Line1.Point1.Data.StartCondition, 
TestParameter, AutoAnalysis.Line1.Point2.Type, 0
TestParameter, AutoAnalysis.Line1.Point2.XY.X, 
TestParameter, AutoAnalysis.Line1.Point2.XY.Y, 
TestParameter, AutoAnalysis.Line1.Point2.Data.Var, 
TestParameter, AutoAnalysis.Line1.Point2.Data.Condition, 
TestParameter, AutoAnalysis.Line1.Point2.Data.Start, false
TestParameter, AutoAnalysis.Line1.Point2.Data.StartVar, 
TestParameter, AutoAnalysis.Line1.Point2.Data.StartCondition, 
TestParameter, AutoAnalysis.Line1.GradientExpr, 0
TestParameter, AutoAnalysis.Line2.Enabled, false
TestParameter, AutoAnalysis.Line2.Type, 1
TestParameter, AutoAnalysis.Line2.Fix, True
TestParameter, AutoAnalysis.Line2.YAxis, 0
TestParameter, AutoAnalysis.Line2.Point1.Type, 0
TestParameter, AutoAnalysis.Line2.Point1.XY.X, 
TestParameter, AutoAnalysis.Line2.Point1.XY.Y, 
TestParameter, AutoAnalysis.Line2.Point1.Data.Var, 
TestParameter, AutoAnalysis.Line2.Point1.Data.Condition, 
TestParameter, AutoAnalysis.Line2.Point1.Data.Start, false
TestParameter, AutoAnalysis.Line2.Point1.Data.StartVar, 
TestParameter, AutoAnalysis.Line2.Point1.Data.StartCondition, 
TestParameter, AutoAnalysis.Line2.Point2.Type, 0
TestParameter, AutoAnalysis.Line2.Point2.XY.X, 
TestParameter, AutoAnalysis.Line2.Point2.XY.Y, 
TestParameter, AutoAnalysis.Line2.Point2.Data.Var, 
TestParameter, AutoAnalysis.Line2.Point2.Data.Condition, 
TestParameter, AutoAnalysis.Line2.Point2.Data.Start, false
TestParameter, AutoAnalysis.Line2.Point2.Data.StartVar, 
TestParameter, AutoAnalysis.Line2.Point2.Data.StartCondition, 
TestParameter, AutoAnalysis.Line2.GradientExpr, 0
TestParameter, AutoAnalysis.Marker.Enabled, false
TestParameter, AutoAnalysis.Marker.Data.Var, 
TestParameter, AutoAnalysis.Marker.Data.Condition, 
TestParameter, AutoAnalysis.Marker.Data.Start, false
TestParameter, AutoAnalysis.Marker.Data.StartVar, 
TestParameter, AutoAnalysis.Marker.Data.StartCondition, 
MetaData, TestRecord.EntryPoint, true
MetaData, TestRecord.RecordTime, 06/14/2015 12:46:50
MetaData, TestRecord.TestTarget, 
MetaData, TestRecord.IterationIndex, 305
MetaData, TestRecord.Preservation, true
MetaData, TestRecord.Flag, 
MetaData, TestRecord.Remarks, 
MetaData, TestRecord.LinkKey, 969a3419-3f4b-4a6d-bc0a-1fdc28862292
Dimension1, 202, 202, 202, 202, 202
Dimension2, 1, 1, 1, 1, 1
DataName, VG, VD, IG, ID, IS
DataValue, 0.5, -0.3, 5.4000000000000004E-12, -5.3000000000000004E-12, 2.6000000000000002E-12
DataValue, 0.47500000000000003, -0.3, 3.43E-12, -4.07E-12, -5.8000000000000005E-13
DataValue, 0.45, -0.3, 1.7100000000000002E-12, -3.7400000000000006E-12, 9.9E-13
DataValue, 0.42500000000000004, -0.3, 8.1000000000000008E-13, -2.5500000000000002E-12, -1E-12
DataValue, 0.4, -0.3, 3.2600000000000002E-12, -4.51E-12, 4.9E-13
DataValue, 0.375, -0.3, 2.9600000000000003E-12, -9.4E-13, -2.69E-12
DataValue, 0.35000000000000003, -0.3, 2.1200000000000003E-12, -2.67E-12, -7E-14
DataValue, 0.325, -0.3, 3.05E-12, -3.9800000000000004E-12, -3.02E-12
DataValue, 0.3, -0.3, -7.6000000000000009E-13, -2.49E-12, 1.55E-12
DataValue, 0.275, -0.3, -5E-13, -7.2000000000000006E-13, -1.7500000000000002E-12
DataValue, 0.25, -0.3, 2.39E-12, -2.24E-12, -8.6000000000000007E-13
DataValue, 0.225, -0.3, -6.5000000000000006E-13, 3.0000000000000005E-14, -9.4E-13
DataValue, 0.2, -0.3, 4.0900000000000005E-12, -3.4200000000000004E-12, -1.46E-12
DataValue, 0.17500000000000002, -0.3, -6.7000000000000007E-13, -1.09E-12, 3.0100000000000003E-12
DataValue, 0.15, -0.3, 9.0000000000000008E-14, 0, -1.8100000000000002E-12
DataValue, 0.125, -0.3, 9.000000000000001E-13, -2.26E-12, 3.1400000000000004E-12
DataValue, 0.1, -0.3, 2.0000000000000003E-14, 9.6000000000000015E-13, -1.3500000000000001E-12
DataValue, 0.075, -0.3, 3.1200000000000004E-12, -2.8800000000000002E-12, 1.9400000000000002E-12
DataValue, 0.05, -0.3, -5.7E-13, -8.2E-13, 1.1000000000000002E-12
DataValue, 0.025, -0.3, -4.6000000000000006E-13, 2.0000000000000003E-14, 1.32E-12
DataValue, 0, -0.3, -7.2000000000000006E-13, -1.2900000000000002E-12, 3.66E-12
DataValue, -0.025, -0.3, 9.1000000000000016E-13, 1.2000000000000001E-12, -2.11E-12
DataValue, -0.05, -0.3, 6.6E-13, -2.42E-12, 2.0500000000000004E-12
DataValue, -0.075, -0.3, 5.9E-13, -3.18E-12, 1.8000000000000002E-13
DataValue, -0.1, -0.3, -2.1000000000000003E-12, -5.1000000000000005E-12, 5.53E-12
DataValue, -0.125, -0.3, -2.0500000000000004E-12, -1.076E-11, 1.8050000000000002E-11
DataValue, -0.15, -0.3, 1.1000000000000002E-12, -4.225E-11, 2.5170000000000002E-11
DataValue, -0.17500000000000002, -0.3, -1.9E-12, -7.3960000000000009E-11, 6.485E-11
DataValue, -0.2, -0.3, 2.7300000000000003E-12, -1.7510000000000002E-10, 1.6931E-10
DataValue, -0.225, -0.3, -1.78E-12, -4.3248000000000004E-10, 4.2698E-10
DataValue, -0.25, -0.3, -7.4E-12, -1.1224E-09, 1.3051999999999998E-09
DataValue, -0.275, -0.3, 4.3000000000000004E-13, -3.312E-09, 2.7381E-09
DataValue, -0.3, -0.3, -2.3200000000000002E-12, -6.9494E-09, 6.933E-09
DataValue, -0.325, -0.3, 7.8600000000000008E-12, -1.8954599999999998E-08, 1.75606E-08
DataValue, -0.35000000000000003, -0.3, -2.72E-12, -4.6245999999999996E-08, 4.3785399999999993E-08
DataValue, -0.375, -0.3, 8.8000000000000009E-13, -1.0942E-07, 1.125E-07
DataValue, -0.4, -0.3, -1.45E-12, -2.7226E-07, 2.7124E-07
DataValue, -0.42500000000000004, -0.3, -2.9300000000000002E-12, -6.9056E-07, 6.6775999999999994E-07
DataValue, -0.45, -0.3, 1.1520000000000001E-11, -1.6712000000000002E-06, 1.6346000000000002E-06
DataValue, -0.47500000000000003, -0.3, -3.8E-12, -3.8118000000000005E-06, 3.8662E-06
DataValue, -0.5, -0.3, -4.3400000000000005E-12, -8.7745E-06, 8.7132000000000016E-06
DataValue, -0.525, -0.3, -5.95E-12, -1.8402E-05, 1.8682000000000002E-05
DataValue, -0.55, -0.3, -5.9300000000000008E-12, -3.6432E-05, 3.6672000000000004E-05
DataValue, -0.57500000000000007, -0.3, -6.3200000000000005E-12, -6.6758E-05, 6.6722E-05
DataValue, -0.6, -0.3, -8.83E-12, -0.000112118, 0.00011147
DataValue, -0.625, -0.3, -1.167E-11, -0.0001751, 0.00017486000000000002
DataValue, -0.65, -0.3, -1.269E-11, -0.00025434000000000003, 0.00025448
DataValue, -0.675, -0.3, -1.541E-11, -0.00035402000000000003, 0.00035392
DataValue, -0.70000000000000007, -0.3, -1.8290000000000002E-11, -0.00046842000000000005, 0.00046798000000000006
DataValue, -0.72500000000000009, -0.3, -2.236E-11, -0.00059622000000000006, 0.00059588
DataValue, -0.75, -0.3, -2.7180000000000003E-11, -0.00073742, 0.0007381200000000001
DataValue, -0.775, -0.3, -2.908E-11, -0.00088924, 0.0008834
DataValue, -0.8, -0.3, -3.275E-11, -0.00104626, 0.00105126
DataValue, -0.82500000000000007, -0.3, -3.759E-11, -0.0012128, 0.0012132
DataValue, -0.85000000000000009, -0.3, -4.17E-11, -0.0013804, 0.0013786
DataValue, -0.875, -0.3, -4.509E-11, -0.0015554, 0.0015538
DataValue, -0.9, -0.3, -4.9210000000000004E-11, -0.0017238, 0.0017284
DataValue, -0.925, -0.3, -5.5150000000000005E-11, -0.0018906, 0.0018936
DataValue, -0.95000000000000007, -0.3, -6.101E-11, -0.0020618, 0.002056
DataValue, -0.97500000000000009, -0.3, -6.836000000000001E-11, -0.0022118, 0.0022140000000000003
DataValue, -1, -0.3, -7.604E-11, -0.0023728, 0.0023674
DataValue, -1.0250000000000001, -0.3, -8.663E-11, -0.0025144, 0.0025182
DataValue, -1.05, -0.3, -9.49E-11, -0.0026564, 0.002656
DataValue, -1.075, -0.3, -1.0445000000000001E-10, -0.0027928000000000002, 0.0027934
DataValue, -1.1, -0.3, -1.1887E-10, -0.0029156, 0.0029202
DataValue, -1.125, -0.3, -1.3337E-10, -0.0030478000000000002, 0.0030394000000000003
DataValue, -1.1500000000000001, -0.3, -1.5241000000000002E-10, -0.0031508, 0.0031552
DataValue, -1.175, -0.3, -1.7023000000000002E-10, -0.0032636, 0.0032588
DataValue, -1.2, -0.3, -1.9256E-10, -0.0033722, 0.0033682
DataValue, -1.225, -0.3, -2.1621000000000002E-10, -0.0034592, 0.00347
DataValue, -1.25, -0.3, -2.3725000000000003E-10, -0.0035622, 0.0035536
DataValue, -1.2750000000000001, -0.3, -2.6864E-10, -0.0036408, 0.0036488000000000002
DataValue, -1.3, -0.3, -3.0067E-10, -0.0037252, 0.0037192
DataValue, -1.325, -0.3, -3.3917000000000003E-10, -0.0038038, 0.0038156
DataValue, -1.35, -0.3, -3.7599E-10, -0.0038868, 0.0038762000000000002
DataValue, -1.375, -0.3, -4.2377000000000003E-10, -0.0039494000000000005, 0.0039524
DataValue, -1.4000000000000001, -0.3, -4.7056000000000008E-10, -0.0040296, 0.0040182
DataValue, -1.425, -0.3, -5.3117E-10, -0.0040838, 0.004093
DataValue, -1.4500000000000002, -0.3, -5.846200000000001E-10, -0.0041458, 0.0041418
DataValue, -1.475, -0.3, -6.3956E-10, -0.0042028000000000005, 0.0042052
DataValue, -1.5, -0.3, -7.2009E-10, -0.0042584, 0.004264
DataValue, -1.5250000000000001, -0.3, -7.9780000000000008E-10, -0.0043186, 0.004318
DataValue, -1.55, -0.3, -8.8349000000000012E-10, -0.0043712, 0.00437
DataValue, -1.5750000000000002, -0.3, -9.8113000000000011E-10, -0.0044126, 0.004425
DataValue, -1.6, -0.3, -1.08367E-09, -0.004469, 0.0044604
DataValue, -1.625, -0.3, -1.1827E-09, -0.0045132, 0.0045044
DataValue, -1.6500000000000001, -0.3, -1.3168E-09, -0.0045496, 0.0045606
DataValue, -1.675, -0.3, -1.4361E-09, -0.0045982, 0.004588
DataValue, -1.7000000000000002, -0.3, -1.5582E-09, -0.0046286, 0.0046346
DataValue, -1.725, -0.3, -1.7259E-09, -0.0046706000000000004, 0.004675
DataValue, -1.75, -0.3, -1.8733E-09, -0.0047102, 0.0047042
DataValue, -1.7750000000000001, -0.3, -2.0524E-09, -0.0047388000000000005, 0.0047466
DataValue, -1.8, -0.3, -2.2249E-09, -0.0047854, 0.0047738
DataValue, -1.8250000000000002, -0.3, -2.4352E-09, -0.0048088, 0.004811
DataValue, -1.85, -0.3, -2.6476E-09, -0.0048452, 0.0048412
DataValue, -1.875, -0.3, -2.8675E-09, -0.0048784, 0.0048744
DataValue, -1.9000000000000001, -0.3, -3.1171E-09, -0.004902, 0.0049046
DataValue, -1.925, -0.3, -3.3731E-09, -0.0049384, 0.0049342
DataValue, -1.9500000000000002, -0.3, -3.6609E-09, -0.0049602, 0.0049678000000000005
DataValue, -1.975, -0.3, -3.9453E-09, -0.004992, 0.0049888
DataValue, -2, -0.3, -4.2675E-09, -0.0050116, 0.005014
DataValue, -2, -0.3, -4.2398E-09, -0.0050098, 0.0050122000000000005
DataValue, -1.975, -0.3, -3.937E-09, -0.0049884000000000005, 0.0049876
DataValue, -1.9500000000000002, -0.3, -3.6578E-09, -0.0049554, 0.0049578
DataValue, -1.925, -0.3, -3.3594E-09, -0.0049298, 0.0049224
DataValue, -1.9000000000000001, -0.3, -3.1075E-09, -0.0048904000000000005, 0.0048946
DataValue, -1.875, -0.3, -2.8365E-09, -0.0048632, 0.0048548
DataValue, -1.85, -0.3, -2.6281E-09, -0.0048242, 0.0048302
DataValue, -1.8250000000000002, -0.3, -2.4252E-09, -0.0047922, 0.004791
DataValue, -1.8, -0.3, -2.2293E-09, -0.0047638, 0.0047572000000000005
DataValue, -1.7750000000000001, -0.3, -2.0465E-09, -0.0047228, 0.004729
DataValue, -1.75, -0.3, -1.8534E-09, -0.0046890000000000005, 0.0046812
DataValue, -1.725, -0.3, -1.7249E-09, -0.0046484000000000004, 0.0046554000000000005
DataValue, -1.7000000000000002, -0.3, -1.5682E-09, -0.0046096, 0.0046014
DataValue, -1.675, -0.3, -1.4394E-09, -0.0045694, 0.004572
DataValue, -1.6500000000000001, -0.3, -1.3081E-09, -0.004522, 0.0045278
DataValue, -1.625, -0.3, -1.1976E-09, -0.0044862, 0.0044812
DataValue, -1.6, -0.3, -1.0899E-09, -0.0044316, 0.0044448000000000005
DataValue, -1.5750000000000002, -0.3, -9.8044E-10, -0.0043938, 0.004388
DataValue, -1.55, -0.3, -8.947E-10, -0.0043322000000000005, 0.004342
DataValue, -1.5250000000000001, -0.3, -7.9517000000000006E-10, -0.0042898, 0.0042878000000000005
DataValue, -1.5, -0.3, -7.3200000000000006E-10, -0.0042346, 0.0042444
DataValue, -1.475, -0.3, -6.5357E-10, -0.0041778, 0.0041782
DataValue, -1.4500000000000002, -0.3, -5.9148E-10, -0.0041204, 0.0041136
DataValue, -1.425, -0.3, -5.3345000000000006E-10, -0.0040472, 0.0040518
DataValue, -1.4000000000000001, -0.3, -4.7542E-10, -0.0039942, 0.0039862000000000005
DataValue, -1.375, -0.3, -4.2969000000000004E-10, -0.0039154, 0.003928
DataValue, -1.35, -0.3, -3.8163E-10, -0.0038526000000000003, 0.0038442
DataValue, -1.325, -0.3, -3.4349E-10, -0.0037658, 0.0037724
DataValue, -1.3, -0.3, -3.0789E-10, -0.0036910000000000003, 0.003687
DataValue, -1.2750000000000001, -0.3, -2.7452E-10, -0.0036094, 0.0036124
DataValue, -1.25, -0.3, -2.4302E-10, -0.0035216, 0.003516
DataValue, -1.225, -0.3, -2.1898000000000003E-10, -0.0034244, 0.0034278
DataValue, -1.2, -0.3, -1.9722000000000002E-10, -0.0033226, 0.0033198
DataValue, -1.175, -0.3, -1.733E-10, -0.0032206, 0.0032140000000000003
DataValue, -1.1500000000000001, -0.3, -1.5503E-10, -0.0031006000000000002, 0.0031134
DataValue, -1.125, -0.3, -1.3798E-10, -0.0029952, 0.002994
DataValue, -1.1, -0.3, -1.2398000000000002E-10, -0.002866, 0.0028724
DataValue, -1.075, -0.3, -1.107E-10, -0.002745, 0.0027384
DataValue, -1.05, -0.3, -1.0069E-10, -0.0026112, 0.0026088
DataValue, -1.0250000000000001, -0.3, -9.2190000000000007E-11, -0.0024674000000000002, 0.0024682000000000003
DataValue, -1, -0.3, -7.950000000000001E-11, -0.0023238, 0.0023202
DataValue, -0.97500000000000009, -0.3, -7.193E-11, -0.0021682, 0.0021726000000000002
DataValue, -0.95000000000000007, -0.3, -6.392000000000001E-11, -0.002009, 0.0020104
DataValue, -0.925, -0.3, -5.991E-11, -0.00185, 0.0018502
DataValue, -0.9, -0.3, -5.5340000000000006E-11, -0.001678, 0.0016808
DataValue, -0.875, -0.3, -4.6780000000000005E-11, -0.0015192, 0.0015116
DataValue, -0.85000000000000009, -0.3, -4.247E-11, -0.0013462, 0.0013512
DataValue, -0.82500000000000007, -0.3, -3.748E-11, -0.0011804, 0.0011842
DataValue, -0.8, -0.3, -3.211E-11, -0.0010192, 0.0010202
DataValue, -0.775, -0.3, -2.8270000000000003E-11, -0.0008622, 0.00086118
DataValue, -0.75, -0.3, -2.5970000000000002E-11, -0.00071266, 0.0007129
DataValue, -0.72500000000000009, -0.3, -2.2680000000000003E-11, -0.00057460000000000009, 0.00057722
DataValue, -0.70000000000000007, -0.3, -1.9400000000000002E-11, -0.00044916000000000004, 0.00045198000000000005
DataValue, -0.675, -0.3, -1.519E-11, -0.00033948, 0.00033916
DataValue, -0.65, -0.3, -1.2740000000000001E-11, -0.00024482000000000003, 0.00024400000000000002
DataValue, -0.625, -0.3, -1.1430000000000001E-11, -0.00016690000000000002, 0.00016572
DataValue, -0.6, -0.3, -8.92E-12, -0.00010638000000000001, 0.00010578000000000001
DataValue, -0.57500000000000007, -0.3, -6.65E-12, -6.2256000000000008E-05, 6.344E-05
DataValue, -0.55, -0.3, -6.6900000000000008E-12, -3.4246000000000004E-05, 3.4606E-05
DataValue, -0.525, -0.3, -4.52E-12, -1.7542E-05, 1.7452E-05
DataValue, -0.5, -0.3, -3.13E-12, -8.2281E-06, 8.1512E-06
DataValue, -0.47500000000000003, -0.3, -4.6500000000000006E-12, -3.6019E-06, 3.6637E-06
DataValue, -0.45, -0.3, -2.4000000000000003E-12, -1.5437000000000001E-06, 1.5485E-06
DataValue, -0.42500000000000004, -0.3, -1.5300000000000001E-12, -6.2898E-07, 6.3706E-07
DataValue, -0.4, -0.3, 9.000000000000001E-13, -2.618E-07, 2.59E-07
DataValue, -0.375, -0.3, -1.1500000000000002E-12, -1.0554E-07, 1.0342E-07
DataValue, -0.35000000000000003, -0.3, -8.300000000000001E-13, -4.3864199999999993E-08, 4.2329599999999994E-08
DataValue, -0.325, -0.3, 2.6E-13, -1.81588E-08, 1.6739E-08
DataValue, -0.3, -0.3, 1.2800000000000002E-12, -6.7035E-09, 6.7077999999999995E-09
DataValue, -0.275, -0.3, -1.17E-12, -2.7367E-09, 2.6537E-09
DataValue, -0.25, -0.3, -1.74E-12, -1.0538E-09, 1.2739E-09
DataValue, -0.225, -0.3, 4.3000000000000004E-13, -4.413E-10, 4.1724000000000005E-10
DataValue, -0.2, -0.3, -5.9E-13, -1.6298000000000002E-10, 1.6878E-10
DataValue, -0.17500000000000002, -0.3, 1.3900000000000001E-12, -6.4580000000000011E-11, 1.1249E-10
DataValue, -0.15, -0.3, 7.100000000000001E-13, -3.1590000000000004E-11, 2.8140000000000002E-11
DataValue, -0.125, -0.3, -1.7600000000000002E-12, -1.066E-11, 8.22E-12
DataValue, -0.1, -0.3, 3.0400000000000004E-12, -5.6600000000000005E-12, 6.14E-12
DataValue, -0.075, -0.3, 4.1E-13, -2.6E-13, 2.7800000000000003E-12
DataValue, -0.05, -0.3, 5.5000000000000008E-13, -1.2000000000000001E-12, 1.79E-12
DataValue, -0.025, -0.3, -8.2E-13, 3.2000000000000005E-13, 3.7300000000000005E-12
